time	V(p001)	V(n003)	V(n005)
0.000000000000000e+000	2.801007e+000	5.640121e+000	0.000000e+000
9.999999717180685e-010	2.800999e+000	5.640113e+000	3.141593e-006
1.999999943436137e-009	2.800995e+000	5.640109e+000	6.283185e-006
3.999999886872274e-009	2.800994e+000	5.640108e+000	1.256637e-005
7.999999773744548e-009	2.800989e+000	5.640103e+000	2.513274e-005
1.599999954748910e-008	2.800964e+000	5.640078e+000	5.026548e-005
3.199999909497819e-008	2.800900e+000	5.640015e+000	1.005310e-004
1.279999963799128e-007	2.800510e+000	5.639624e+000	4.021238e-004
2.559999927598256e-007	2.799985e+000	5.639099e+000	8.042470e-004
5.119999855196511e-007	2.798920e+000	5.638034e+000	1.608490e-003
1.023999971039302e-006	2.796729e+000	5.635842e+000	3.216949e-003
2.047999942078604e-006	2.792129e+000	5.631238e+000	6.433649e-003
4.095999884157209e-006	2.782200e+000	5.621296e+000	1.286530e-002
8.191999768314418e-006	2.760257e+000	5.599302e+000	2.571463e-002
1.638399953662884e-005	2.711816e+000	5.550672e+000	5.130167e-002
3.276799907325767e-005	2.609151e+000	5.447315e+000	1.016249e-001
6.405956688314155e-005	2.415272e+000	5.251237e+000	1.933504e-001
1.040119852390526e-004	2.194483e+000	5.026141e+000	2.966717e-001
1.626557388739554e-004	1.929632e+000	4.752895e+000	4.200767e-001
1.902999281448683e-004	1.837682e+000	4.656270e+000	4.627085e-001
2.103638300164753e-004	1.793366e+000	4.608234e+000	4.831400e-001
2.253709518366788e-004	1.772541e+000	4.584540e+000	4.926798e-001
2.437539243399457e-004	1.760866e+000	4.569308e+000	4.979015e-001
2.626774420801433e-004	1.763829e+000	4.568625e+000	4.962822e-001
2.856344932138165e-004	1.790697e+000	4.591196e+000	4.834523e-001
3.228377057000714e-004	1.884649e+000	4.678802e+000	4.391032e-001
3.820220730573995e-004	2.134232e+000	4.920688e+000	3.216186e-001
4.707827502145028e-004	2.637428e+000	5.418746e+000	8.449052e-002
5.707827502145029e-004	3.247860e+000	6.032069e+000	-2.042447e-001
6.335265546687679e-004	3.583453e+000	6.374359e+000	-3.640401e-001
6.701266128504736e-004	3.729886e+000	6.526578e+000	-4.343699e-001
6.956426204039686e-004	3.801432e+000	6.602754e+000	-4.689188e-001
7.143260975007547e-004	3.836905e+000	6.641804e+000	-4.860593e-001
7.303021451992387e-004	3.855460e+000	6.663492e+000	-4.949979e-001
7.453681884233167e-004	3.862795e+000	6.673803e+000	-4.984583e-001
7.632780306751377e-004	3.858529e+000	6.673058e+000	-4.962109e-001
7.866111886839818e-004	3.831189e+000	6.650174e+000	-4.826364e-001
8.244123374463533e-004	3.737314e+000	6.562892e+000	-4.366594e-001
8.844820840876895e-004	3.487174e+000	6.320794e+000	-3.157795e-001
9.742775926921691e-004	2.981123e+000	5.820280e+000	-7.443976e-002
1.074277592692169e-003	2.369575e+000	5.206230e+000	2.139456e-001
1.135080603159523e-003	2.040958e+000	4.871357e+000	3.675371e-001
1.171174586896166e-003	1.893577e+000	4.718406e+000	4.360282e-001
1.196397083621246e-003	1.820737e+000	4.641086e+000	4.697512e-001
1.214887523793737e-003	1.784481e+000	4.601358e+000	4.864496e-001
1.231000134442569e-003	1.765294e+000	4.579069e+000	4.952103e-001
1.246608306422265e-003	1.757687e+000	4.568434e+000	4.985684e-001
1.263739209049919e-003	1.762405e+000	4.569848e+000	4.961539e-001
1.287361090743405e-003	1.792103e+000	4.595131e+000	4.819967e-001
1.325620750521117e-003	1.892220e+000	4.688771e+000	4.347550e-001
1.386366972736157e-003	2.154578e+000	4.943420e+000	3.112646e-001
1.476943302942598e-003	2.673344e+000	5.457396e+000	6.676275e-002
1.576943302942598e-003	3.282168e+000	6.069623e+000	-2.212992e-001
1.636251065007937e-003	3.594635e+000	6.388653e+000	-3.701528e-001
1.671966074150133e-003	3.734302e+000	6.534041e+000	-4.372674e-001
1.696967691058888e-003	3.802850e+000	6.607140e+000	-4.703733e-001
1.715312437010469e-003	3.836731e+000	6.644535e+000	-4.867411e-001
1.731528289523603e-003	3.854647e+000	6.665628e+000	-4.953642e-001
1.747546603085766e-003	3.861612e+000	6.675754e+000	-4.986343e-001
1.764088056780049e-003	3.856757e+000	6.674143e+000	-4.961095e-001
1.787928288875802e-003	3.827320e+000	6.649240e+000	-4.815051e-001
1.826534406951952e-003	3.728843e+000	6.557441e+000	-4.332986e-001
1.887790349868103e-003	3.469062e+000	6.305685e+000	-3.078322e-001
1.978949300063013e-003	2.951173e+000	5.793025e+000	-6.098093e-002
2.078949300063013e-003	2.340617e+000	5.179527e+000	2.268053e-001
2.137123640559159e-003	2.029655e+000	4.862374e+000	3.720925e-001
2.172557342148190e-003	1.887401e+000	4.714578e+000	4.381856e-001
2.197394397606161e-003	1.816875e+000	4.639617e+000	4.708344e-001
2.215630359840104e-003	1.781862e+000	4.601168e+000	4.869571e-001
2.231923394352922e-003	1.763191e+000	4.579353e+000	4.954754e-001
2.248248481608015e-003	1.755910e+000	4.568900e+000	4.986739e-001
2.264348970856436e-003	1.761051e+000	4.570934e+000	4.960755e-001
2.288352486310506e-003	1.792424e+000	4.597824e+000	4.811331e-001
2.327217518691092e-003	1.896149e+000	4.694993e+000	4.322003e-001
2.388853568488610e-003	2.165857e+000	4.956985e+000	3.052557e-001
2.480443745874613e-003	2.693241e+000	5.479779e+000	5.667150e-002
2.580443745874613e-003	3.300908e+000	6.091129e+000	-2.308914e-001
2.637769231634842e-003	3.600236e+000	6.396919e+000	-3.735219e-001
2.672995469560362e-003	3.736173e+000	6.538536e+000	-4.388619e-001
2.697710828693296e-003	3.803074e+000	6.609941e+000	-4.711741e-001
2.715866212802418e-003	3.836078e+000	6.646422e+000	-4.871161e-001
2.732216470016106e-003	3.853623e+000	6.667168e+000	-4.955558e-001
2.748769084281090e-003	3.860339e+000	6.677146e+000	-4.986978e-001
2.764542483726720e-003	3.855221e+000	6.675116e+000	-4.960500e-001
2.788667086400238e-003	3.824582e+000	6.649052e+000	-4.808549e-001
2.827724029562468e-003	3.723490e+000	6.554680e+000	-4.313810e-001
2.889641365141639e-003	3.458295e+000	6.297490e+000	-3.033396e-001
2.981548858756920e-003	2.933951e+000	5.778187e+000	-5.348386e-002
3.081548858756920e-003	2.324093e+000	5.165132e+000	2.339039e-001
3.138244229041130e-003	2.022961e+000	4.857853e+000	3.745705e-001
3.173318185679132e-003	1.883502e+000	4.712863e+000	4.393578e-001
3.197944037433506e-003	1.814234e+000	4.639184e+000	4.714232e-001
3.216040085693810e-003	1.779898e+000	4.601429e+000	4.872326e-001
3.232432508892947e-003	1.761519e+000	4.579884e+000	4.956139e-001
3.249152827610874e-003	1.754444e+000	4.569555e+000	4.987125e-001
3.264685119208034e-003	1.759781e+000	4.571892e+000	4.960309e-001
3.288898964858558e-003	1.792094e+000	4.599681e+000	4.806485e-001
3.328097297233162e-003	1.897829e+000	4.698815e+000	4.307744e-001
3.390221619337550e-003	2.171593e+000	4.964855e+000	3.019246e-001
3.482361628605983e-003	2.703629e+000	5.492404e+000	5.113909e-002
3.582361628605982e-003	3.310591e+000	6.103192e+000	-2.361145e-001
3.638592287499460e-003	3.602730e+000	6.401728e+000	-3.753372e-001
3.673554852815175e-003	3.736659e+000	6.541310e+000	-4.397202e-001
3.698115134236344e-003	3.802675e+000	6.611803e+000	-4.716052e-001
3.716167676800796e-003	3.835207e+000	6.647791e+000	-4.873178e-001
3.732591031908377e-003	3.852548e+000	6.668344e+000	-4.956560e-001
3.749434398557038e-003	3.859116e+000	6.678226e+000	-4.987216e-001
3.764789775676621e-003	3.853876e+000	6.675988e+000	-4.960168e-001
3.789069097209595e-003	3.822575e+000	6.649283e+000	-4.804964e-001
3.828371136103162e-003	3.720052e+000	6.553497e+000	-4.303279e-001
3.890647144135815e-003	3.451912e+000	6.293345e+000	-3.008850e-001
3.982957015399759e-003	2.924115e+000	5.770477e+000	-4.942129e-002
4.082957015399760e-003	2.314682e+000	5.157700e+000	2.377312e-001
4.138846571376121e-003	2.018877e+000	4.855769e+000	3.758963e-001
4.173727860276981e-003	1.880915e+000	4.712280e+000	4.399845e-001
4.198240246553108e-003	1.812321e+000	4.639284e+000	4.717380e-001
4.216260990493014e-003	1.778348e+000	4.601902e+000	4.873799e-001
4.232706962155238e-003	1.759835e+000	4.580207e+000	4.958243e-001
4.247932961331439e-003	1.753205e+000	4.570611e+000	4.987343e-001
4.264231683519038e-003	1.758442e+000	4.572693e+000	4.960909e-001
4.288161802028359e-003	1.789497e+000	4.599266e+000	4.813008e-001
4.326910468695703e-003	1.892537e+000	4.695744e+000	4.326949e-001
4.388375771186769e-003	2.160849e+000	4.956309e+000	3.064148e-001
4.479772582134630e-003	2.686623e+000	5.477407e+000	5.860708e-002
4.579772582134631e-003	3.294558e+000	6.088919e+000	-2.290580e-001
4.637479759294569e-003	3.596423e+000	6.397238e+000	-3.728816e-001
4.672798950447582e-003	3.733081e+000	6.539565e+000	-4.385590e-001
4.697568870127453e-003	3.800303e+000	6.611288e+000	-4.710220e-001
4.715760393835851e-003	3.833479e+000	6.647939e+000	-4.870449e-001
4.732084980924428e-003	3.851101e+000	6.668748e+000	-4.955200e-001
4.748535517632762e-003	3.857872e+000	6.678753e+000	-4.986876e-001
4.764455666057097e-003	3.852805e+000	6.676796e+000	-4.960615e-001
4.788525945783451e-003	3.822402e+000	6.650950e+000	-4.809800e-001
4.827496802629735e-003	3.721823e+000	6.557062e+000	-4.317491e-001
4.889288008590374e-003	3.457676e+000	6.300894e+000	-3.041998e-001
4.981053406475089e-003	2.934578e+000	5.782827e+000	-5.491304e-002
5.081053406475089e-003	2.324604e+000	5.169656e+000	2.325543e-001
5.138031525152115e-003	2.021614e+000	4.860482e+000	3.741013e-001
5.173173635537495e-003	1.881635e+000	4.714953e+000	4.391359e-001
5.197839565405314e-003	1.812135e+000	4.641025e+000	4.713117e-001
5.215962189498227e-003	1.777675e+000	4.603136e+000	4.871805e-001
5.232335724057655e-003	1.759245e+000	4.581535e+000	4.955880e-001
5.248980913304066e-003	1.752134e+000	4.571177e+000	4.987062e-001
5.264621219984098e-003	1.757441e+000	4.573455e+000	4.960395e-001
5.288795086612484e-003	1.789580e+000	4.601068e+000	4.807411e-001
5.327930084967333e-003	1.894943e+000	4.699820e+000	4.310464e-001
5.389961715551001e-003	2.167953e+000	4.965078e+000	3.025588e-001
5.481997704474588e-003	2.699136e+000	5.491712e+000	5.218901e-002
5.581997704474588e-003	3.306266e+000	6.102593e+000	-2.351252e-001
5.638436575234700e-003	3.599784e+000	6.402496e+000	-3.749943e-001
5.673448953841891e-003	3.734103e+000	6.542457e+000	-4.395582e-001
5.698038567939912e-003	3.800294e+000	6.613117e+000	-4.715238e-001
5.716110576618642e-003	3.832920e+000	6.649196e+000	-4.872797e-001
5.732520090002343e-003	3.850305e+000	6.669782e+000	-4.956372e-001
5.749308391406535e-003	3.856905e+000	6.679680e+000	-4.987177e-001
5.764742940534182e-003	3.851691e+000	6.677477e+000	-4.960231e-001
5.788992961245271e-003	3.820522e+000	6.650889e+000	-4.805645e-001
5.828248593838575e-003	3.718279e+000	6.555363e+000	-4.305278e-001
5.890456740041951e-003	3.450711e+000	6.295757e+000	-3.013504e-001
5.982690673594432e-003	2.923585e+000	5.773540e+000	-5.018975e-002
6.082690673594432e-003	2.314091e+000	5.160686e+000	2.370083e-001
6.138732890416099e-003	2.017292e+000	4.857732e+000	3.756464e-001
6.173650504200867e-003	1.879056e+000	4.713954e+000	4.398664e-001
6.198184301681919e-003	1.810341e+000	4.640824e+000	4.716786e-001
6.216219263108762e-003	1.776304e+000	4.603368e+000	4.873521e-001
6.232655121824887e-003	1.758060e+000	4.581938e+000	4.956728e-001
6.249548233894315e-003	1.751085e+000	4.571666e+000	4.987250e-001
6.264832086528888e-003	1.756504e+000	4.574123e+000	4.960110e-001
6.289137877723905e-003	1.789238e+000	4.602304e+000	4.804347e-001
6.328481834851688e-003	1.895867e+000	4.702292e+000	4.301470e-001
6.390819121881749e-003	2.171423e+000	4.970090e+000	3.004644e-001
6.483197486886438e-003	2.705496e+000	5.499676e+000	4.872745e-002
6.583197486886438e-003	3.312165e+000	6.110184e+000	-2.383835e-001
6.638949111894549e-003	3.601190e+000	6.405550e+000	-3.761216e-001
6.673797650643219e-003	3.734262e+000	6.544247e+000	-4.400910e-001
6.698290725278167e-003	3.799904e+000	6.614341e+000	-4.717915e-001
6.716298642939538e-003	3.832238e+000	6.650113e+000	-4.874050e-001
6.732752821264866e-003	3.849790e+000	6.670873e+000	-4.958434e-001
6.747927642348744e-003	3.855982e+000	6.680044e+000	-4.987379e-001
6.764229706269151e-003	3.850884e+000	6.678124e+000	-4.960911e-001
6.788158587398611e-003	3.821086e+000	6.652851e+000	-4.813036e-001
6.826905292034864e-003	3.721817e+000	6.560233e+000	-4.327033e-001
6.888367714354490e-003	3.460377e+000	6.306752e+000	-3.064344e-001
6.979761258762861e-003	2.940507e+000	5.791961e+000	-5.863973e-002
7.079761258762861e-003	2.330208e+000	5.178543e+000	2.290270e-001
7.137474869038399e-003	2.022346e+000	4.864448e+000	3.728707e-001
7.172795631492132e-003	1.880988e+000	4.717517e+000	4.385539e-001
7.197566472985833e-003	1.810871e+000	4.642948e+000	4.710194e-001
7.215758607090041e-003	1.776079e+000	4.604709e+000	4.870436e-001
7.232082760688757e-003	1.757508e+000	4.582972e+000	4.955194e-001
7.248531573742782e-003	1.750298e+000	4.572548e+000	4.986874e-001
7.264454200081086e-003	1.755513e+000	4.574673e+000	4.960617e-001
7.288523562503931e-003	1.787191e+000	4.601833e+000	4.809821e-001
7.327492965547412e-003	1.891565e+000	4.699601e+000	4.317553e-001
7.389282040792458e-003	2.162577e+000	4.962836e+000	3.042143e-001
7.481045035587499e-003	2.691478e+000	5.487092e+000	5.493719e-002
7.581045035587499e-003	3.298987e+000	6.098237e+000	-2.325314e-001
7.638027927937980e-003	3.596094e+000	6.401734e+000	-3.740933e-001
7.673171191456044e-003	3.731421e+000	6.542700e+000	-4.391321e-001
7.697837799164564e-003	3.798058e+000	6.613810e+000	-4.713098e-001
7.715960872630762e-003	3.830923e+000	6.650129e+000	-4.871796e-001
7.732334087842050e-003	3.848413e+000	6.670809e+000	-4.955876e-001
7.748978006948539e-003	3.855093e+000	6.680752e+000	-4.987061e-001
7.764620139708064e-003	3.849943e+000	6.678648e+000	-4.960396e-001
7.788793330441027e-003	3.819108e+000	6.652373e+000	-4.807427e-001
7.827927257978932e-003	3.717585e+000	6.557540e+000	-4.310510e-001
7.889957321018963e-003	3.451491e+000	6.299391e+000	-3.025695e-001
7.981991549368071e-003	2.926098e+000	5.778923e+000	-5.220677e-002
8.081991549368070e-003	2.316415e+000	5.165909e+000	2.351085e-001
8.138433939788317e-003	2.016984e+000	4.860288e+000	3.749886e-001
8.173447161773146e-003	1.878014e+000	4.715758e+000	4.395554e-001
8.198037272354576e-003	1.808970e+000	4.642284e+000	4.715225e-001
8.216109610460301e-003	1.774757e+000	4.604640e+000	4.872791e-001
8.232518889621468e-003	1.756437e+000	4.583134e+000	4.956369e-001
8.249306259274810e-003	1.749407e+000	4.572822e+000	4.987176e-001
8.264742148047640e-003	1.754782e+000	4.575201e+000	4.960232e-001
8.288991672959446e-003	1.787268e+000	4.603135e+000	4.805657e-001
8.328246520270557e-003	1.893365e+000	4.702589e+000	4.305312e-001
8.390453517926205e-003	2.167850e+000	4.969294e+000	3.013583e-001
8.482686165470335e-003	2.700716e+000	5.497610e+000	5.020276e-002
8.582686165470334e-003	3.307608e+000	6.108266e+000	-2.369960e-001
8.638730965254485e-003	3.598561e+000	6.405558e+000	-3.756422e-001
8.673649194343510e-003	3.732172e+000	6.544788e+000	-4.398644e-001
8.698183354431776e-003	3.798054e+000	6.615120e+000	-4.716777e-001
8.716218556607801e-003	3.830517e+000	6.651020e+000	-4.873517e-001
8.732654244090138e-003	3.847831e+000	6.671534e+000	-4.956726e-001
8.749546674886267e-003	3.854381e+000	6.681395e+000	-4.987249e-001
8.764831507070527e-003	3.849129e+000	6.679116e+000	-4.960111e-001
8.789136935760928e-003	3.817727e+000	6.652293e+000	-4.804356e-001
8.828480318840750e-003	3.714978e+000	6.556251e+000	-4.301495e-001
8.890816766814200e-003	3.446365e+000	6.295571e+000	-3.004701e-001
8.983194194473861e-003	2.918026e+000	5.772066e+000	-4.873695e-002
9.083194194473860e-003	2.308708e+000	5.159298e+000	2.383746e-001
9.138947708591100e-003	2.013824e+000	4.858247e+000	3.761185e-001
9.173796695441338e-003	1.876129e+000	4.714997e+000	4.400896e-001
9.198290034354502e-003	1.807659e+000	4.642107e+000	4.717907e-001
9.216298127561293e-003	1.773754e+000	4.604780e+000	4.874046e-001
9.232752202672712e-003	1.755261e+000	4.583090e+000	4.958432e-001
9.247927714093995e-003	1.748672e+000	4.573531e+000	4.987378e-001
9.264229732939354e-003	1.753925e+000	4.575615e+000	4.960911e-001
9.288158630759264e-003	1.784986e+000	4.602174e+000	4.813036e-001
9.326905361860510e-003	1.888032e+000	4.698627e+000	4.327032e-001
9.388367823029799e-003	2.156351e+000	4.959148e+000	3.064341e-001
9.479761411500485e-003	2.682144e+000	5.480188e+000	5.863929e-002
9.579761411500484e-003	3.290134e+000	6.091673e+000	-2.290275e-001
9.637474935003061e-003	3.592072e+000	6.400019e+000	-3.728709e-001
9.672795676261304e-003	3.728761e+000	6.542349e+000	-4.385539e-001
9.697566505320639e-003	3.796001e+000	6.614070e+000	-4.710194e-001
9.715758631191248e-003	3.829189e+000	6.650719e+000	-4.870436e-001
9.732082790637271e-003	3.846820e+000	6.671524e+000	-4.955194e-001
9.748531626941488e-003	3.853599e+000	6.681524e+000	-4.986874e-001
9.764454219855482e-003	3.848540e+000	6.679563e+000	-4.960617e-001
9.788523594651740e-003	3.818152e+000	6.653711e+000	-4.809821e-001
9.827493017305450e-003	3.717595e+000	6.559815e+000	-4.317552e-001
9.889282121291696e-003	3.453489e+000	6.303639e+000	-3.042141e-001
9.981045148502576e-003	2.930445e+000	5.785556e+000	-5.493686e-002
1.008104514850258e-002	2.320508e+000	5.172345e+000	2.325318e-001
1.013802797646165e-002	2.017509e+000	4.863119e+000	3.740934e-001
1.017317122442472e-002	1.877536e+000	4.717569e+000	4.391322e-001
1.019783782298968e-002	1.808043e+000	4.643628e+000	4.713099e-001
1.021596089039419e-002	1.773588e+000	4.605730e+000	4.871796e-001
1.023233410991322e-002	1.755164e+000	4.584123e+000	4.955876e-001
1.024897804615283e-002	1.748059e+000	4.573760e+000	4.987061e-001
1.026462015428008e-002	1.753372e+000	4.576032e+000	4.960396e-001
1.028879335413031e-002	1.785519e+000	4.603634e+000	4.807426e-001
1.032792729611265e-002	1.890893e+000	4.702367e+000	4.310509e-001
1.038995738029764e-002	2.163917e+000	4.967594e+000	3.025694e-001
1.048199163239586e-002	2.695128e+000	5.494186e+000	5.220653e-002
1.058199163239586e-002	3.302306e+000	6.105043e+000	-2.351087e-001
1.063843397533893e-002	3.595876e+000	6.404955e+000	-3.749886e-001
1.067344718594704e-002	3.730218e+000	6.544915e+000	-4.395555e-001
1.069803728983119e-002	3.796423e+000	6.615572e+000	-4.715225e-001
1.071610962349315e-002	3.829059e+000	6.651647e+000	-4.872791e-001
1.073251890581383e-002	3.846452e+000	6.672230e+000	-4.956369e-001
1.074930628803589e-002	3.853060e+000	6.682124e+000	-4.987176e-001
1.076474215873777e-002	3.847853e+000	6.679916e+000	-4.960232e-001
1.078899169033759e-002	3.816694e+000	6.653321e+000	-4.805657e-001
1.082824654824166e-002	3.714469e+000	6.557785e+000	-4.305311e-001
1.089045356139054e-002	3.446930e+000	6.298165e+000	-3.013582e-001
1.098268622628233e-002	2.919846e+000	5.775925e+000	-5.020259e-002
1.108268622628233e-002	2.310386e+000	5.163036e+000	2.369962e-001
1.113873099122402e-002	2.013590e+000	4.860047e+000	3.756423e-001
1.117364921201285e-002	1.875363e+000	4.716253e+000	4.398645e-001
1.119818336720970e-002	1.806655e+000	4.643114e+000	4.716777e-001
1.121621856613814e-002	1.772623e+000	4.605651e+000	4.873517e-001
1.123265425593033e-002	1.754385e+000	4.584215e+000	4.956726e-001
1.124954669591650e-002	1.747416e+000	4.573937e+000	4.987249e-001
1.126483151488713e-002	1.752840e+000	4.576389e+000	4.960111e-001
1.128913694846753e-002	1.785582e+000	4.604562e+000	4.804356e-001
1.132848033929098e-002	1.892224e+000	4.704536e+000	4.301494e-001
1.139081679858291e-002	2.167798e+000	4.972310e+000	3.004701e-001
1.148319423888701e-002	2.701901e+000	5.501865e+000	4.873682e-002
1.158319423888701e-002	3.308614e+000	6.112351e+000	-2.383747e-001
1.163894772752114e-002	3.597676e+000	6.407717e+000	-3.761186e-001
1.167379670832664e-002	3.730767e+000	6.546411e+000	-4.400896e-001
1.169829004367479e-002	3.796421e+000	6.616501e+000	-4.717908e-001
1.171629813451354e-002	3.828764e+000	6.652270e+000	-4.874046e-001
1.173275221101727e-002	3.846322e+000	6.673026e+000	-4.958432e-001
1.174792771312618e-002	3.852521e+000	6.682193e+000	-4.987378e-001
1.176422973257958e-002	3.847428e+000	6.680269e+000	-4.960911e-001
1.178815863017435e-002	3.817639e+000	6.654988e+000	-4.813036e-001
1.182690536091859e-002	3.718381e+000	6.562357e+000	-4.327032e-001
1.188836782156381e-002	3.456959e+000	6.308855e+000	-3.064341e-001
1.197976140944011e-002	2.937114e+000	5.794033e+000	-5.863930e-002
1.207976140944011e-002	2.326847e+000	5.180583e+000	2.290275e-001
