Freq.	V(p001)
1.00000000000000e+001	(1.40314996984618e-001dB,-9.76837983130366e+001°)
1.07977516232771e+001	(7.16405357333829e-001dB,-1.01268761954642e+002°)
1.16591440117983e+001	(1.25810838331160e+000dB,-1.04829698113731e+002°)
1.25892541179417e+001	(1.76555142302805e+000dB,-1.08358111311474e+002°)
1.35935639087853e+001	(2.23895939165424e+000dB,-1.11845013440319e+002°)
1.46779926762207e+001	(2.67868904385208e+000dB,-1.15280977709849e+002°)
1.58489319246111e+001	(3.08526028094956e+000dB,-1.18656272818271e+002°)
1.71132830416178e+001	(3.45938051719616e+000dB,-1.21961066447307e+002°)
1.84784979742229e+001	(3.80195898651149e+000dB,-1.25185678843717e+002°)
1.99526231496888e+001	(4.11410912475998e+000dB,-1.28320861642499e+002°)
2.15443469003188e+001	(4.39713861600732e+000dB,-1.31358075023257e+002°)
2.32630506715363e+001	(4.65252811013731e+000dB,-1.34289737941208e+002°)
2.51188643150958e+001	(4.88190078495516e+000dB,-1.37109431013887e+002°)
2.71227257933203e+001	(5.08698568407460e+000dB,-1.39812038601332e+002°)
2.92864456462524e+001	(5.26957804969912e+000dB,-1.42393824352013e+002°)
3.16227766016838e+001	(5.43149971863737e+000dB,-1.44852441719853e+002°)
3.41454887383360e+001	(5.57456216338767e+000dB,-1.47186886729532e+002°)
3.68694506451957e+001	(5.70053407701040e+000dB,-1.49397404071050e+002°)
3.98107170553497e+001	(5.81111465881384e+000dB,-1.51485359378644e+002°)
4.29866234708228e+001	(5.90791306912585e+000dB,-1.53453090572401e+002°)
4.64158883361278e+001	(5.99243395783207e+000dB,-1.55303749882491e+002°)
5.01187233627272e+001	(6.06606856430474e+000dB,-1.57041146150712e+002°)
5.41169526546464e+001	(6.13009063555865e+000dB,-1.58669594672072e+002°)
5.84341413373518e+001	(6.18565629394945e+000dB,-1.60193779549120e+002°)
6.30957344480193e+001	(6.23380697407739e+000dB,-1.61618631507147e+002°)
6.81292069057961e+001	(6.27547460748905e+000dB,-1.62949222470475e+002°)
7.35642254459641e+001	(6.31148833490359e+000dB,-1.64190676958240e+002°)
7.94328234724281e+001	(6.34258214483740e+000dB,-1.65348099493227e+002°)
8.57695898590894e+001	(6.36940295903557e+000dB,-1.66426516673862e+002°)
9.26118728128793e+001	(6.39251879839932e+000dB,-1.67430832269379e+002°)
1.00000000000000e+002	(6.41242676167393e+000dB,-1.68365793594607e+002°)
1.07977516232771e+002	(6.42956063233284e+000dB,-1.69235967447540e+002°)
1.16591440117983e+002	(6.44429799513427e+000dB,-1.70045724000950e+002°)
1.25892541179417e+002	(6.45696679533499e+000dB,-1.70799227194411e+002°)
1.35935639087853e+002	(6.46785131197124e+000dB,-1.71500430348811e+002°)
1.46779926762207e+002	(6.47719754439618e+000dB,-1.72153075904276e+002°)
1.58489319246111e+002	(6.48521803009735e+000dB,-1.72760698353207e+002°)
1.71132830416178e+002	(6.49209612464687e+000dB,-1.73326629596854e+002°)
1.84784979742229e+002	(6.49798978147813e+000dB,-1.73854006092584e+002°)
1.99526231496888e+002	(6.50303487319965e+000dB,-1.74345777279880e+002°)
2.15443469003188e+002	(6.50734809693482e+000dB,-1.74804714875889e+002°)
2.32630506715363e+002	(6.51102950528244e+000dB,-1.75233422717637e+002°)
2.51188643150958e+002	(6.51416470268745e+000dB,-1.75634346899827e+002°)
2.71227257933203e+002	(6.51682674392771e+000dB,-1.76009786015728e+002°)
2.92864456462524e+002	(6.51907776837470e+000dB,-1.76361901356462e+002°)
3.16227766016838e+002	(6.52097040038273e+000dB,-1.76692726962431e+002°)
3.41454887383360e+002	(6.52254894261872e+000dB,-1.77004179451162e+002°)
3.68694506451957e+002	(6.52385038607274e+000dB,-1.77298067570079e+002°)
3.98107170553497e+002	(6.52490525712795e+000dB,-1.77576101441464e+002°)
4.29866234708228e+002	(6.52573831936807e+000dB,-1.77839901481395e+002°)
4.64158883361278e+002	(6.52636914478314e+000dB,-1.78091006985215e+002°)
5.01187233627272e+002	(6.52681256678515e+000dB,-1.78330884380098e+002°)
5.41169526546464e+002	(6.52707902463994e+000dB,-1.78560935150523e+002°)
5.84341413373517e+002	(6.52717480715442e+000dB,-1.78782503445938e+002°)
6.30957344480193e+002	(6.52710220087908e+000dB,-1.78996883381225e+002°)
6.81292069057961e+002	(6.52685954652214e+000dB,-1.79205326040463e+002°)
7.35642254459641e+002	(6.52644120489779e+000dB,-1.79409046192597e+002°)
7.94328234724281e+002	(6.52583743233688e+000dB,-1.79609228724322e+002°)
8.57695898590894e+002	(6.52503416314458e+000dB,-1.79807034790268e+002°)
9.26118728128793e+002	(6.52401269543564e+000dB,1.79996392326249e+002°)
1.00000000000000e+003	(6.52274927431639e+000dB,1.79799921657890e+002°)
1.07977516232771e+003	(6.52121456504501e+000dB,1.79602429330866e+002°)
1.16591440117983e+003	(6.51937300685689e+000dB,1.79402793717524e+002°)
1.25892541179417e+003	(6.51718203642915e+000dB,1.79199891024238e+002°)
1.35935639087853e+003	(6.51459116842047e+000dB,1.78992591397235e+002°)
1.46779926762207e+003	(6.51154091927640e+000dB,1.78779755656487e+002°)
1.58489319246111e+003	(6.50796155921947e+000dB,1.78560232801277e+002°)
1.71132830416178e+003	(6.50377167715831e+000dB,1.78332858471492e+002°)
1.84784979742229e+003	(6.49887654325784e+000dB,1.78096454597296e+002°)
1.99526231496888e+003	(6.49316625574185e+000dB,1.77849830527370e+002°)
2.15443469003188e+003	(6.48651366125327e+000dB,1.77591785993529e+002°)
2.32630506715363e+003	(6.47877204387614e+000dB,1.77321116347239e+002°)
2.51188643150958e+003	(6.46977258618706e+000dB,1.77036620591451e+002°)
2.71227257933203e+003	(6.45932161839771e+000dB,1.76737112827519e+002°)
2.92864456462524e+003	(6.44719768966797e+000dB,1.76421437838348e+002°)
3.16227766016838e+003	(6.43314852003288e+000dB,1.76088491629598e+002°)
3.41454887383360e+003	(6.41688792481822e+000dB,1.75737247840210e+002°)
3.68694506451957e+003	(6.39809284569500e+000dB,1.75366790997409e+002°)
3.98107170553497e+003	(6.37640067710753e+000dB,1.74976357606846e+002°)
4.29866234708228e+003	(6.35140714263415e+000dB,1.74565386006570e+002°)
4.64158883361278e+003	(6.32266505397603e+000dB,1.74133575733817e+002°)
5.01187233627272e+003	(6.28968437270976e+000dB,1.73680956808041e+002°)
5.41169526546464e+003	(6.25193408672666e+000dB,1.73207968765633e+002°)
5.84341413373518e+003	(6.20884650024373e+000dB,1.72715548432944e+002°)
6.30957344480193e+003	(6.15982460341995e+000dB,1.72205224243902e+002°)
6.81292069057961e+003	(6.10425321460483e+000dB,1.71679213369045e+002°)
7.35642254459641e+003	(6.04151454698329e+000dB,1.71140516045033e+002°)
7.94328234724281e+003	(5.97100871149259e+000dB,1.70592999371121e+002°)
8.57695898590894e+003	(5.89217939615891e+000dB,1.70041460673414e+002°)
9.26118728128794e+003	(5.80454453373039e+000dB,1.69491658656140e+002°)
1.00000000000000e+004	(5.70773117761508e+000dB,1.68950299418065e+002°)
1.07977516232771e+004	(5.60151307219034e+000dB,1.68424964562528e+002°)
1.16591440117983e+004	(5.48584859283722e+000dB,1.67923970626147e+002°)
1.25892541179417e+004	(5.36091595436534e+000dB,1.67456153316384e+002°)
1.35935639087853e+004	(5.22714199708220e+000dB,1.67030576691740e+002°)
1.46779926762207e+004	(5.08522063036195e+000dB,1.66656176070011e+002°)
1.58489319246111e+004	(4.93611729955850e+000dB,1.66341353161499e+002°)
1.71132830416178e+004	(4.78105673285854e+000dB,1.66093551215467e+002°)
1.84784979742229e+004	(4.62149270226031e+000dB,1.65918845045445e+002°)
1.99526231496888e+004	(4.45906044658738e+000dB,1.65821583939646e+002°)
2.15443469003188e+004	(4.29551448004499e+000dB,1.65804123470090e+002°)
2.32630506715363e+004	(4.13265640009938e+000dB,1.65866674802691e+002°)
2.51188643150958e+004	(3.97225866502529e+000dB,1.66007288103470e+002°)
2.71227257933203e+004	(3.81599087081667e+000dB,1.66221971862488e+002°)
2.92864456462524e+004	(3.66535470977948e+000dB,1.66504934873856e+002°)
3.16227766016838e+004	(3.52163260589111e+000dB,1.66848924751050e+002°)
3.41454887383360e+004	(3.38585322928828e+000dB,1.67245628239939e+002°)
3.68694506451958e+004	(3.25877502725488e+000dB,1.67686095299979e+002°)
3.98107170553497e+004	(3.14088692856723e+000dB,1.68161150927328e+002°)
4.29866234708228e+004	(3.03242377862336e+000dB,1.68661764981209e+002°)
4.64158883361278e+004	(2.93339302598327e+000dB,1.69179359208175e+002°)
5.01187233627272e+004	(2.84360875684296e+000dB,1.69706040420477e+002°)
5.41169526546464e+004	(2.76272929312711e+000dB,1.70234757796337e+002°)
5.84341413373518e+004	(2.69029509002250e+000dB,1.70759389442100e+002°)
6.30957344480193e+004	(2.62576441570935e+000dB,1.71274768191978e+002°)
6.81292069057961e+004	(2.56854511090338e+000dB,1.71776659124525e+002°)
7.35642254459641e+004	(2.51802148519552e+000dB,1.72261701815738e+002°)
7.94328234724282e+004	(2.47357603634590e+000dB,1.72727329460946e+002°)
8.57695898590894e+004	(2.43460614592596e+000dB,1.73171675246042e+002°)
9.26118728128793e+004	(2.40053621164454e+000dB,1.73593474215057e+002°)
1.00000000000000e+005	(2.37082584506013e+000dB,1.73991966725330e+002°)
