time	V(p001)	V(n002)	V(n003)
0.000000000000000e+000	1.240824e-005	5.640121e+000	0.000000e+000
3.999999984016789e-012	1.230046e-005	5.640121e+000	1.256637e-008
1.657142850521242e-011	1.192902e-005	5.640121e+000	5.206068e-008
2.914285702640804e-011	1.156516e-005	5.640121e+000	9.155499e-008
4.171428554760367e-011	1.120890e-005	5.640120e+000	1.310493e-007
5.428571406879930e-011	1.086023e-005	5.640120e+000	1.705436e-007
6.685714258999493e-011	1.051915e-005	5.640120e+000	2.100379e-007
7.942857111119055e-011	1.018566e-005	5.640119e+000	2.495322e-007
9.199999963238614e-011	9.859773e-006	5.640119e+000	2.890265e-007
6.679999973308039e-010	2.193404e-006	5.640112e+000	2.098584e-006
1.243999995029222e-009	-3.871475e-006	5.640106e+000	3.908141e-006
1.819999992727640e-009	-8.334864e-006	5.640101e+000	5.717699e-006
2.395999990426057e-009	-1.119676e-005	5.640098e+000	7.527256e-006
2.971999988124475e-009	-1.245717e-005	5.640097e+000	9.336814e-006
3.547999985822893e-009	-1.211609e-005	5.640097e+000	1.114637e-005
4.123999983521309e-009	-1.017352e-005	5.640099e+000	1.295593e-005
8.219999967154501e-009	-2.385966e-005	5.640085e+000	2.582389e-005
1.641199993442088e-008	-8.384753e-005	5.640025e+000	5.155982e-005
3.279599986895365e-008	-2.556311e-004	5.639853e+000	1.030317e-004
6.556399973801919e-008	-6.438161e-004	5.639465e+000	2.059754e-004
4.032069142557743e-006	-4.875170e-002	5.591358e+000	1.268505e-002
7.998574285377467e-006	-9.676756e-002	5.543342e+000	2.513695e-002
1.196507942819719e-005	-1.446914e-001	5.495418e+000	3.756170e-002
1.593158457101692e-005	-1.925232e-001	5.447586e+000	4.995928e-002
1.989808971383664e-005	-2.402631e-001	5.399846e+000	6.232970e-002
2.386459485665637e-005	-2.879108e-001	5.352198e+000	7.467295e-002
2.783109999947608e-005	-3.354666e-001	5.304642e+000	8.698905e-002
2.793109999947608e-005	-3.366612e-001	5.303448e+000	8.729840e-002
3.220252857090474e-005	-3.876554e-001	5.252454e+000	1.005017e-001
3.647395714233341e-005	-4.382895e-001	5.201820e+000	1.136092e-001
4.074538571376207e-005	-4.885633e-001	5.151546e+000	1.266210e-001
4.501681428519074e-005	-5.384769e-001	5.101632e+000	1.395369e-001
4.928824285661940e-005	-5.880303e-001	5.052079e+000	1.523571e-001
5.355967142804807e-005	-6.372235e-001	5.002886e+000	1.650815e-001
5.783109999947672e-005	-6.860566e-001	4.954052e+000	1.777101e-001
5.793109999947672e-005	-6.871920e-001	4.952917e+000	1.780037e-001
6.220252857090540e-005	-7.355202e-001	4.904589e+000	1.904998e-001
6.647395714233407e-005	-7.832382e-001	4.856871e+000	2.028368e-001
7.074538571376276e-005	-8.303458e-001	4.809763e+000	2.150147e-001
7.501681428519143e-005	-8.768431e-001	4.763266e+000	2.270335e-001
7.928824285662010e-005	-9.227300e-001	4.717379e+000	2.388933e-001
8.355967142804877e-005	-9.680066e-001	4.672102e+000	2.505940e-001
8.783109999947744e-005	-1.012673e+000	4.627436e+000	2.621356e-001
8.793109999947744e-005	-1.013708e+000	4.626401e+000	2.624031e-001
9.220252857090612e-005	-1.057621e+000	4.582488e+000	2.737493e-001
9.647395714233480e-005	-1.100695e+000	4.539414e+000	2.848787e-001
1.007453857137635e-004	-1.142931e+000	4.497178e+000	2.957914e-001
1.050168142851922e-004	-1.184329e+000	4.455780e+000	3.064874e-001
1.092882428566208e-004	-1.224889e+000	4.415221e+000	3.169666e-001
1.135596714280495e-004	-1.264610e+000	4.375499e+000	3.272291e-001
1.178310999994782e-004	-1.303492e+000	4.336617e+000	3.372748e-001
1.179310999994782e-004	-1.304390e+000	4.335719e+000	3.375067e-001
1.222025285709068e-004	-1.342298e+000	4.297811e+000	3.473011e-001
1.264739571423355e-004	-1.379169e+000	4.260940e+000	3.568287e-001
1.307453857137642e-004	-1.415005e+000	4.225104e+000	3.660896e-001
1.350168142851929e-004	-1.449805e+000	4.190304e+000	3.750838e-001
1.392882428566216e-004	-1.483569e+000	4.156540e+000	3.838112e-001
1.435596714280502e-004	-1.516297e+000	4.123812e+000	3.922720e-001
1.478310999994789e-004	-1.547989e+000	4.092120e+000	4.004660e-001
1.479310999994789e-004	-1.548716e+000	4.091393e+000	4.006540e-001
1.522025285709076e-004	-1.579248e+000	4.060861e+000	4.085496e-001
1.564739571423363e-004	-1.608583e+000	4.031526e+000	4.161379e-001
1.607453857137649e-004	-1.636722e+000	4.003387e+000	4.234189e-001
1.650168142851936e-004	-1.663665e+000	3.976444e+000	4.303927e-001
1.692882428566223e-004	-1.689413e+000	3.950697e+000	4.370592e-001
1.735596714280510e-004	-1.713964e+000	3.926145e+000	4.434184e-001
1.778310999994796e-004	-1.737319e+000	3.902790e+000	4.494704e-001
1.779310999994796e-004	-1.737849e+000	3.902260e+000	4.496079e-001
1.822025285709083e-004	-1.759900e+000	3.880209e+000	4.553250e-001
1.864739571423370e-004	-1.780638e+000	3.859471e+000	4.607051e-001
1.907453857137657e-004	-1.800063e+000	3.840046e+000	4.657483e-001
1.950168142851943e-004	-1.818175e+000	3.821934e+000	4.704547e-001
1.992882428566230e-004	-1.834974e+000	3.805135e+000	4.748240e-001
2.035596714280517e-004	-1.850461e+000	3.789648e+000	4.788565e-001
2.078310999994804e-004	-1.864635e+000	3.775474e+000	4.825521e-001
2.079310999994804e-004	-1.864950e+000	3.775159e+000	4.826342e-001
2.122025285709090e-004	-1.877723e+000	3.762387e+000	4.859703e-001
2.164739571423377e-004	-1.889113e+000	3.750996e+000	4.889517e-001
2.207453857137664e-004	-1.899122e+000	3.740987e+000	4.915784e-001
2.250168142851951e-004	-1.907748e+000	3.732361e+000	4.938505e-001
2.292882428566237e-004	-1.914993e+000	3.725116e+000	4.957680e-001
2.335596714280524e-004	-1.920855e+000	3.719254e+000	4.973309e-001
2.378310999994811e-004	-1.925336e+000	3.714773e+000	4.985391e-001
2.379310999994811e-004	-1.925423e+000	3.714686e+000	4.985631e-001
2.422025285709098e-004	-1.928456e+000	3.711653e+000	4.993999e-001
2.464739571423385e-004	-1.930088e+000	3.710021e+000	4.998769e-001
2.507453857137671e-004	-1.930318e+000	3.709791e+000	4.999941e-001
2.550168142851958e-004	-1.929147e+000	3.710962e+000	4.997516e-001
2.592882428566245e-004	-1.926575e+000	3.713534e+000	4.991492e-001
2.635596714280532e-004	-1.922601e+000	3.717508e+000	4.981871e-001
2.678310999994818e-004	-1.917226e+000	3.722883e+000	4.968652e-001
2.679310999994818e-004	-1.917084e+000	3.723025e+000	4.968300e-001
2.722025285709105e-004	-1.910267e+000	3.729842e+000	4.951379e-001
2.764739571423391e-004	-1.902081e+000	3.738028e+000	4.930937e-001
2.807453857137678e-004	-1.892525e+000	3.747584e+000	4.906972e-001
2.850168142851965e-004	-1.881598e+000	3.758511e+000	4.879486e-001
2.892882428566252e-004	-1.869302e+000	3.770807e+000	4.848478e-001
2.935596714280539e-004	-1.855636e+000	3.784473e+000	4.813948e-001
2.978310999994825e-004	-1.840599e+000	3.799510e+000	4.775896e-001
2.979310999994825e-004	-1.840232e+000	3.799877e+000	4.774965e-001
3.022025285709112e-004	-1.823813e+000	3.816297e+000	4.733355e-001
3.064739571423399e-004	-1.806104e+000	3.834005e+000	4.688424e-001
3.107453857137686e-004	-1.787106e+000	3.853003e+000	4.640172e-001
3.150168142851972e-004	-1.766819e+000	3.873290e+000	4.588598e-001
3.192882428566259e-004	-1.745244e+000	3.894866e+000	4.533704e-001
3.235596714280546e-004	-1.722378e+000	3.917731e+000	4.475488e-001
3.278310999994833e-004	-1.698224e+000	3.941885e+000	4.413951e-001
3.279310999994833e-004	-1.697645e+000	3.942465e+000	4.412474e-001
3.322025285709120e-004	-1.672216e+000	3.967894e+000	4.347649e-001
3.364739571423406e-004	-1.645625e+000	3.994484e+000	4.279821e-001
3.407453857137693e-004	-1.617873e+000	4.022236e+000	4.208991e-001
3.450168142851979e-004	-1.588959e+000	4.051150e+000	4.135157e-001
3.492882428566266e-004	-1.558883e+000	4.081226e+000	4.058321e-001
3.535596714280553e-004	-1.527646e+000	4.112463e+000	3.978482e-001
3.578310999994840e-004	-1.495247e+000	4.144862e+000	3.895640e-001
3.579310999994840e-004	-1.494477e+000	4.145633e+000	3.893670e-001
3.622025285709127e-004	-1.460958e+000	4.179152e+000	3.807926e-001
3.664739571423413e-004	-1.426446e+000	4.213663e+000	3.719604e-001
3.707453857137700e-004	-1.390943e+000	4.249166e+000	3.628704e-001
3.750168142851987e-004	-1.354448e+000	4.285661e+000	3.535226e-001
3.792882428566274e-004	-1.316960e+000	4.323149e+000	3.439170e-001
3.835596714280561e-004	-1.278481e+000	4.361628e+000	3.340536e-001
3.878310999994847e-004	-1.239009e+000	4.401100e+000	3.239323e-001
3.879310999994847e-004	-1.238076e+000	4.402033e+000	3.236929e-001
3.922025285709134e-004	-1.197679e+000	4.442430e+000	3.133305e-001
3.964739571423421e-004	-1.156496e+000	4.483613e+000	3.027618e-001
4.007453857137708e-004	-1.114527e+000	4.525582e+000	2.919869e-001
4.050168142851994e-004	-1.071770e+000	4.568339e+000	2.810058e-001
4.092882428566281e-004	-1.028228e+000	4.611881e+000	2.698185e-001
4.135596714280568e-004	-9.838987e-001	4.656210e+000	2.584250e-001
4.178310999994854e-004	-9.387831e-001	4.701326e+000	2.468252e-001
4.179310999994854e-004	-9.377205e-001	4.702388e+000	2.465520e-001
4.222025285709141e-004	-8.919085e-001	4.748200e+000	2.347685e-001
4.264739571423428e-004	-8.455441e-001	4.794565e+000	2.228377e-001
4.307453857137715e-004	-7.986274e-001	4.841482e+000	2.107596e-001
4.350168142852001e-004	-7.511582e-001	4.888951e+000	1.985342e-001
4.392882428566288e-004	-7.031366e-001	4.936972e+000	1.861615e-001
4.435596714280575e-004	-6.545627e-001	4.985546e+000	1.736415e-001
4.478310999994862e-004	-6.054364e-001	5.034673e+000	1.609742e-001
4.479310999994862e-004	-6.042830e-001	5.035826e+000	1.606768e-001
4.522025285709149e-004	-5.547143e-001	5.085395e+000	1.478897e-001
4.564739571423435e-004	-5.048473e-001	5.135262e+000	1.350194e-001
4.607453857137722e-004	-4.546819e-001	5.185427e+000	1.220660e-001
4.650168142852009e-004	-4.042183e-001	5.235891e+000	1.090294e-001
4.692882428566296e-004	-3.534563e-001	5.286653e+000	9.590966e-002
4.735596714280583e-004	-3.023960e-001	5.337713e+000	8.270674e-002
4.778310999994869e-004	-2.510373e-001	5.389072e+000	6.942065e-002
4.779310999994869e-004	-2.498350e-001	5.390274e+000	6.910952e-002
4.809739571423433e-004	-2.131737e-001	5.426935e+000	5.962110e-002
4.840168142851996e-004	-1.764758e-001	5.463633e+000	5.011958e-002
4.870596714280560e-004	-1.397415e-001	5.500367e+000	4.060497e-002
4.901025285709124e-004	-1.029706e-001	5.537138e+000	3.107726e-002
4.931453857137687e-004	-6.616324e-002	5.573946e+000	2.153646e-002
4.961882428566252e-004	-2.931932e-002	5.610790e+000	1.198256e-002
4.992310999994815e-004	7.561112e-003	5.647670e+000	2.415561e-003
5.079310999994770e-004	1.127996e-001	5.752909e+000	-2.490597e-002
5.122025285709033e-004	1.644300e-001	5.804539e+000	-3.832176e-002
5.164739571423297e-004	2.158292e-001	5.855938e+000	-5.168600e-002
5.207453857137561e-004	2.669973e-001	5.907106e+000	-6.499868e-002
5.250168142851825e-004	3.179342e-001	5.958043e+000	-7.825980e-002
5.292882428566088e-004	3.686399e-001	6.008749e+000	-9.146938e-002
5.335596714280352e-004	4.191144e-001	6.059224e+000	-1.046274e-001
5.378310999994615e-004	4.693577e-001	6.109467e+000	-1.177339e-001
5.379310999994615e-004	4.705276e-001	6.110637e+000	-1.180392e-001
5.422025285708878e-004	5.203969e-001	6.160506e+000	-1.310578e-001
5.464739571423142e-004	5.697801e-001	6.209889e+000	-1.439591e-001
5.507453857137405e-004	6.186773e-001	6.258786e+000	-1.567429e-001
5.550168142851669e-004	6.670884e-001	6.307197e+000	-1.694095e-001
5.592882428565933e-004	7.150134e-001	6.355122e+000	-1.819586e-001
5.635596714280197e-004	7.624524e-001	6.402561e+000	-1.943903e-001
5.678310999994460e-004	8.094053e-001	6.449514e+000	-2.067047e-001
5.679310999994459e-004	8.104954e-001	6.450604e+000	-2.069907e-001
5.722025285708723e-004	8.568191e-001	6.496928e+000	-2.191510e-001
5.764739571422987e-004	9.024225e-001	6.542532e+000	-2.311323e-001
5.807453857137250e-004	9.473054e-001	6.587414e+000	-2.429345e-001
5.850168142851514e-004	9.914678e-001	6.631577e+000	-2.545577e-001
5.892882428565777e-004	1.034910e+000	6.675019e+000	-2.660018e-001
5.935596714280041e-004	1.077631e+000	6.717741e+000	-2.772669e-001
5.978310999994305e-004	1.119633e+000	6.759742e+000	-2.883530e-001
5.979310999994304e-004	1.120604e+000	6.760714e+000	-2.886096e-001
6.022025285708567e-004	1.161748e+000	6.801857e+000	-2.994807e-001
6.064739571422831e-004	1.201966e+000	6.842076e+000	-3.101175e-001
6.107453857137095e-004	1.241261e+000	6.881370e+000	-3.205200e-001
6.150168142851359e-004	1.279630e+000	6.919739e+000	-3.306881e-001
6.192882428565622e-004	1.317075e+000	6.957184e+000	-3.406218e-001
6.235596714279886e-004	1.353596e+000	6.993705e+000	-3.503212e-001
6.278310999994149e-004	1.389192e+000	7.029301e+000	-3.597862e-001
6.279310999994149e-004	1.390011e+000	7.030120e+000	-3.600043e-001
6.322025285708412e-004	1.424557e+000	7.064666e+000	-3.692012e-001
6.364739571422676e-004	1.458012e+000	7.098121e+000	-3.781167e-001
6.407453857136939e-004	1.490377e+000	7.130486e+000	-3.867509e-001
6.450168142851203e-004	1.521652e+000	7.161761e+000	-3.951037e-001
6.492882428565467e-004	1.551836e+000	7.191945e+000	-4.031751e-001
6.535596714279731e-004	1.580930e+000	7.221039e+000	-4.109652e-001
6.578310999993994e-004	1.608933e+000	7.249043e+000	-4.184738e-001
6.579310999993993e-004	1.609574e+000	7.249683e+000	-4.186457e-001
6.622025285708256e-004	1.636378e+000	7.276487e+000	-4.258425e-001
6.664739571422521e-004	1.661970e+000	7.302079e+000	-4.327209e-001
6.707453857136784e-004	1.686348e+000	7.326457e+000	-4.392809e-001
6.750168142851048e-004	1.709514e+000	7.349623e+000	-4.455225e-001
6.792882428565311e-004	1.731466e+000	7.371575e+000	-4.514457e-001
6.835596714279575e-004	1.752206e+000	7.392315e+000	-4.570504e-001
6.878310999993839e-004	1.771733e+000	7.411842e+000	-4.623368e-001
6.879310999993838e-004	1.772174e+000	7.412283e+000	-4.624563e-001
6.922025285708101e-004	1.790400e+000	7.430509e+000	-4.673981e-001
6.964739571422365e-004	1.807333e+000	7.447442e+000	-4.719958e-001
7.007453857136629e-004	1.822976e+000	7.463085e+000	-4.762492e-001
7.050168142850893e-004	1.837326e+000	7.477435e+000	-4.801585e-001
7.092882428565156e-004	1.850385e+000	7.490494e+000	-4.837236e-001
7.135596714279420e-004	1.862152e+000	7.502261e+000	-4.869445e-001
7.178310999993683e-004	1.872627e+000	7.512736e+000	-4.898212e-001
7.179310999993683e-004	1.872856e+000	7.512965e+000	-4.898842e-001
7.222025285707946e-004	1.881972e+000	7.522081e+000	-4.923960e-001
7.264739571422210e-004	1.889758e+000	7.529867e+000	-4.945500e-001
7.307453857136473e-004	1.896213e+000	7.536322e+000	-4.963462e-001
7.350168142850737e-004	1.901339e+000	7.541448e+000	-4.977847e-001
7.392882428565001e-004	1.905134e+000	7.545243e+000	-4.988654e-001
7.435596714279265e-004	1.907599e+000	7.547709e+000	-4.995883e-001
7.478310999993528e-004	1.908735e+000	7.548844e+000	-4.999535e-001
7.479310999993527e-004	1.908745e+000	7.548854e+000	-4.999577e-001
7.522025285707790e-004	1.908502e+000	7.548611e+000	-4.999504e-001
7.564739571422055e-004	1.906926e+000	7.547035e+000	-4.995845e-001
7.607453857136318e-004	1.904019e+000	7.544128e+000	-4.988598e-001
7.650168142850582e-004	1.899780e+000	7.539889e+000	-4.977765e-001
7.692882428564845e-004	1.894209e+000	7.534319e+000	-4.963346e-001
7.735596714279109e-004	1.887307e+000	7.527416e+000	-4.945340e-001
7.778310999993373e-004	1.879072e+000	7.519181e+000	-4.923747e-001
7.779310999993372e-004	1.878864e+000	7.518972e+000	-4.923199e-001
7.822025285707635e-004	1.869267e+000	7.509375e+000	-4.897939e-001
7.864739571421899e-004	1.858372e+000	7.498481e+000	-4.869209e-001
7.907453857136162e-004	1.846181e+000	7.486290e+000	-4.837011e-001
7.950168142850427e-004	1.832693e+000	7.472802e+000	-4.801344e-001
7.992882428564690e-004	1.817907e+000	7.458016e+000	-4.762209e-001
8.035596714278954e-004	1.801825e+000	7.441934e+000	-4.719605e-001
8.078310999993217e-004	1.784445e+000	7.424554e+000	-4.673533e-001
8.079310999993217e-004	1.784023e+000	7.424132e+000	-4.672415e-001
8.122025285707480e-004	1.765335e+000	7.405444e+000	-4.622861e-001
8.164739571421744e-004	1.745425e+000	7.385534e+000	-4.570080e-001
8.207453857136007e-004	1.724292e+000	7.364401e+000	-4.514070e-001
8.250168142850271e-004	1.701937e+000	7.342046e+000	-4.454833e-001
8.292882428564535e-004	1.678359e+000	7.318469e+000	-4.392369e-001
8.335596714278799e-004	1.653560e+000	7.293669e+000	-4.326676e-001
8.378310999993062e-004	1.627538e+000	7.267647e+000	-4.257756e-001
8.379310999993061e-004	1.626915e+000	7.267025e+000	-4.256108e-001
8.422025285707324e-004	1.599683e+000	7.239792e+000	-4.184017e-001
8.464739571421589e-004	1.571346e+000	7.211455e+000	-4.109053e-001
8.507453857135852e-004	1.541905e+000	7.182014e+000	-4.031216e-001
8.550168142850116e-004	1.511361e+000	7.151470e+000	-3.950507e-001
8.592882428564379e-004	1.479712e+000	7.119822e+000	-3.866926e-001
8.635596714278643e-004	1.446960e+000	7.087069e+000	-3.780473e-001
8.678310999992907e-004	1.413104e+000	7.053213e+000	-3.691147e-001
8.679310999992906e-004	1.412300e+000	7.052409e+000	-3.689027e-001
8.722025285707169e-004	1.377377e+000	7.017486e+000	-3.596951e-001
8.764739571421433e-004	1.341512e+000	6.981621e+000	-3.502461e-001
8.807453857135696e-004	1.304706e+000	6.944815e+000	-3.405555e-001
8.850168142849961e-004	1.266957e+000	6.907066e+000	-3.306233e-001
8.892882428564224e-004	1.228266e+000	6.868375e+000	-3.204496e-001
8.935596714278488e-004	1.188633e+000	6.828742e+000	-3.100344e-001
8.978310999992751e-004	1.148057e+000	6.788167e+000	-2.993776e-001
8.979310999992751e-004	1.147099e+000	6.787208e+000	-2.991259e-001
9.022025285707014e-004	1.105646e+000	6.745755e+000	-2.882462e-001
9.064739571421278e-004	1.063452e+000	6.703560e+000	-2.771792e-001
9.107453857135541e-004	1.020516e+000	6.660625e+000	-2.659249e-001
9.150168142849805e-004	9.768393e-001	6.616948e+000	-2.544834e-001
9.192882428564068e-004	9.324213e-001	6.572530e+000	-2.428545e-001
9.235596714278333e-004	8.872620e-001	6.527371e+000	-2.310384e-001
9.278310999992596e-004	8.413614e-001	6.481471e+000	-2.190350e-001
9.279310999992595e-004	8.402810e-001	6.480390e+000	-2.187525e-001
9.322025285706858e-004	7.937283e-001	6.433837e+000	-2.065860e-001
9.364739571421123e-004	7.466662e-001	6.386775e+000	-1.942931e-001
9.407453857135386e-004	6.990948e-001	6.339204e+000	-1.818739e-001
9.450168142849650e-004	6.510141e-001	6.291123e+000	-1.693282e-001
9.492882428563913e-004	6.024240e-001	6.242533e+000	-1.566562e-001
9.535596714278177e-004	5.533246e-001	6.193434e+000	-1.438577e-001
9.578310999992441e-004	5.037159e-001	6.143825e+000	-1.309329e-001
9.579310999992440e-004	5.025518e-001	6.142661e+000	-1.306297e-001
9.622025285706720e-004	4.525439e-001	6.092653e+000	-1.176074e-001
9.664739571421002e-004	4.022801e-001	6.042389e+000	-1.045242e-001
9.707453857135283e-004	3.517603e-001	5.991870e+000	-9.137986e-002
9.750168142849564e-004	3.009846e-001	5.941094e+000	-7.817454e-002
9.792882428563846e-004	2.499528e-001	5.890062e+000	-6.490821e-002
9.835596714278126e-004	1.986652e-001	5.838774e+000	-5.158086e-002
9.878310999992407e-004	1.471215e-001	5.787230e+000	-3.819248e-002
9.879310999992407e-004	1.459153e-001	5.786025e+000	-3.787924e-002
9.899739571420990e-004	1.212504e-001	5.761359e+000	-3.147427e-002
9.920168142849573e-004	9.657148e-002	5.736680e+000	-2.506676e-002
9.940596714278155e-004	7.187868e-002	5.711988e+000	-1.865670e-002
9.961025285706740e-004	4.717197e-002	5.687281e+000	-1.224410e-002
9.981453857135323e-004	2.245135e-002	5.662560e+000	-5.828952e-003
1.000188242856391e-003	-2.283188e-003	5.637826e+000	5.887402e-004
1.002231099999249e-003	-2.703163e-002	5.613078e+000	7.008977e-003
1.017931099999258e-003	-2.168222e-001	5.423287e+000	5.621311e-002
1.022202528570689e-003	-2.682979e-001	5.371811e+000	6.954897e-002
1.026473957142120e-003	-3.195001e-001	5.320609e+000	8.281102e-002
1.030745385713551e-003	-3.704288e-001	5.269680e+000	9.599925e-002
1.035016814284982e-003	-4.210841e-001	5.219025e+000	1.091137e-001
1.039288242856413e-003	-4.714658e-001	5.168643e+000	1.221543e-001
1.043559671427844e-003	-5.215740e-001	5.118535e+000	1.351211e-001
1.047831099999275e-003	-5.714087e-001	5.068700e+000	1.480140e-001
1.047931099999275e-003	-5.725685e-001	5.067541e+000	1.483141e-001
1.052202528570706e-003	-6.219860e-001	5.018123e+000	1.610967e-001
1.056473957142137e-003	-6.708744e-001	4.969234e+000	1.737407e-001
